T668C 000:004.566   SEGGER J-Link V7.96h Log File
T668C 000:004.717   DLL Compiled: May 15 2024 15:33:59
T668C 000:004.721   Logging started @ 2024-09-05 01:38
T668C 000:004.725   Process: D:\application\Keil5 ARM\Keil_v5\UV4\UV4.exe
T668C 000:004.732 - 4.729ms
T668C 000:004.739 JLINK_SetWarnOutHandler(...)
T668C 000:004.743 - 0.005ms
T668C 000:004.751 JLINK_OpenEx(...)
T668C 000:006.593   Firmware: J-Link V9 compiled May  7 2021 16:26:12
T668C 000:007.564   Firmware: J-Link V9 compiled May  7 2021 16:26:12
T668C 000:007.717   Decompressing FW timestamp took 131 us
T668C 000:015.380   Hardware: V9.70
T668C 000:015.393   S/N: 59768911
T668C 000:015.399   OEM: SEGGER
T668C 000:015.406   Feature(s): RDI, GDB, FlashDL, FlashBP, JFlash
T668C 000:016.746   Bootloader: (Could not read)
T668C 000:017.819   TELNET listener socket opened on port 19021
T668C 000:017.910   WEBSRV WEBSRV_Init(): Starting webserver thread(s)
T668C 000:018.064   WEBSRV Webserver running on local port 19080
T668C 000:018.168   Looking for J-Link GUI Server exe at: D:\application\Keil5 ARM\Keil_v5\ARM\Segger\JLinkGUIServer.exe
T668C 000:018.314   Looking for J-Link GUI Server exe at: \JLinkGUIServer.exe
T668C 000:325.455   Failed to connect to J-Link GUI Server.
T668C 000:325.495 - 320.729ms returns "O.K."
T668C 000:325.511 JLINK_GetEmuCaps()
T668C 000:325.517 - 0.005ms returns 0xB9FF7BBF
T668C 000:325.529 JLINK_TIF_GetAvailable(...)
T668C 000:325.831 - 0.303ms
T668C 000:325.845 JLINK_SetErrorOutHandler(...)
T668C 000:325.849 - 0.004ms
T668C 000:325.877 JLINK_ExecCommand("ProjectFile = "D:\桌面\开发板说明\GTC-480800TFT70GP 串口例程\Keil5工程\JLinkSettings.ini"", ...). 
T668C 000:342.957   Device "CORTEX-M33" selected.
T668C 000:343.237 - 17.361ms returns 0x00
T668C 000:346.729 JLINK_ExecCommand("Device = SWM341xE", ...). 
T668C 000:349.047   Device "CORTEX-M33" selected.
T668C 000:349.312 - 2.561ms returns 0x00
T668C 000:349.324 JLINK_ExecCommand("DisableConnectionTimeout", ...). 
T668C 000:349.332 - 0.002ms returns 0x01
T668C 000:349.337 JLINK_GetHardwareVersion()
T668C 000:349.341 - 0.004ms returns 97000
T668C 000:349.346 JLINK_GetDLLVersion()
T668C 000:349.351 - 0.005ms returns 79608
T668C 000:349.356 JLINK_GetOEMString(...)
T668C 000:349.360 JLINK_GetFirmwareString(...)
T668C 000:349.364 - 0.003ms
T668C 000:354.695 JLINK_GetDLLVersion()
T668C 000:354.710 - 0.016ms returns 79608
T668C 000:354.715 JLINK_GetCompileDateTime()
T668C 000:354.719 - 0.003ms
T668C 000:356.421 JLINK_GetFirmwareString(...)
T668C 000:356.437 - 0.015ms
T668C 000:358.000 JLINK_GetHardwareVersion()
T668C 000:358.014 - 0.014ms returns 97000
T668C 000:360.400 JLINK_GetSN()
T668C 000:360.417 - 0.016ms returns 59768911
T668C 000:362.394 JLINK_GetOEMString(...)
T668C 000:365.157 JLINK_TIF_Select(JLINKARM_TIF_SWD)
T668C 000:366.656 - 1.499ms returns 0x00
T668C 000:366.667 JLINK_HasError()
T668C 000:366.685 JLINK_SetSpeed(5000)
T668C 000:367.080 - 0.397ms
T668C 000:367.088 JLINK_GetId()
T668C 000:369.839   Found SW-DP with ID 0x1BE12AEB
T668C 000:376.259   DPIDR: 0x1BE12AEB
T668C 000:377.905   CoreSight SoC-400 or earlier
T668C 000:379.426   Scanning AP map to find all available APs
T668C 000:381.686   AP[1]: Stopped AP scan as end of AP map has been reached
T668C 000:383.045   AP[0]: AHB-AP (IDR: 0x1AEB0015)
T668C 000:384.539   Iterating through AP map to find AHB-AP to use
T668C 000:387.164   AP[0]: Core found
T668C 000:388.497   AP[0]: AHB-AP ROM base: 0xE00FE000
T668C 000:390.976   CPUID register: 0x630F1321. Implementer code: 0x63 (ARM China)
T668C 000:394.062   Feature set: Mainline
T668C 000:396.327   Cache: No cache
T668C 000:397.661   Found STAR r0p1, Little endian.
T668C 000:399.048   
  ***** Warning: 
T668C 000:399.059   Identified core does not match configuration. (Found: STAR, Configured: Cortex-M33)
T668C 000:399.741   -- Max. mem block: 0x00010C20
T668C 000:402.470   
  ***** Warning: 
T668C 000:402.484   Cortex-M (ARMv8-M and later): The connected J-Link (S/N 59768911) uses an old firmware module that does not handle I/D-cache correctly. Proper debugging functionality cannot be guaranteed if cache is enabled
T668C 000:402.556   CPU_ReadMem(4 bytes @ 0xE000EDF0)
T668C 000:403.124   CPU_WriteMem(4 bytes @ 0xE000EDF0)
T668C 000:403.673   CPU_ReadMem(4 bytes @ 0xE0002000)
T668C 000:405.710   FPUnit: 8 code (BP) slots and 0 literal slots
T668C 000:405.739   CPU_ReadMem(4 bytes @ 0xE000EDFC)
T668C 000:406.178   CPU_WriteMem(4 bytes @ 0xE000EDFC)
T668C 000:406.571   CPU_ReadMem(4 bytes @ 0xE0001000)
T668C 000:406.931   CPU_ReadMem(4 bytes @ 0xE0001000)
T668C 000:407.537   CPU_ReadMem(4 bytes @ 0xE0001028)
T668C 000:408.035   CPU_ReadMem(4 bytes @ 0xE0001038)
T668C 000:408.473   CPU_ReadMem(4 bytes @ 0xE0001048)
T668C 000:408.969   CPU_ReadMem(4 bytes @ 0xE0001058)
T668C 000:409.331   CPU_WriteMem(4 bytes @ 0xE0001000)
T668C 000:409.725   CPU_ReadMem(4 bytes @ 0xE000ED88)
T668C 000:410.089   CPU_WriteMem(4 bytes @ 0xE000ED88)
T668C 000:410.583   CPU_ReadMem(4 bytes @ 0xE000ED88)
T668C 000:411.072   CPU_WriteMem(4 bytes @ 0xE000ED88)
T668C 000:411.490   CPU_ReadMem(4 bytes @ 0xE000EFB8)
T668C 000:413.689   Security extension: not implemented
T668C 000:415.168   CoreSight components:
T668C 000:416.740   ROMTbl[0] @ E00FE000
T668C 000:416.755   CPU_ReadMem(64 bytes @ 0xE00FE000)
T668C 000:417.461   CPU_ReadMem(32 bytes @ 0xE00FFFE0)
T668C 000:419.433   [0][0]: E00FF000 CID B105100D PID 001F5132 ROM Table
T668C 000:420.757   ROMTbl[1] @ E00FF000
T668C 000:420.769   CPU_ReadMem(64 bytes @ 0xE00FF000)
T668C 000:421.502   CPU_ReadMem(32 bytes @ 0xE000EFE0)
T668C 000:422.114   CPU_ReadMem(4 bytes @ 0xE000EFBC)
T668C 000:422.653   CPU_ReadMem(4 bytes @ 0xE000EFCC)
T668C 000:426.274   [1][0]: E000E000 CID B105900D PID 001F5132 DEVARCH 47702A04 DEVTYPE 00 ???
T668C 000:426.302   CPU_ReadMem(32 bytes @ 0xE0001FE0)
T668C 000:426.983   CPU_ReadMem(4 bytes @ 0xE0001FBC)
T668C 000:427.400   CPU_ReadMem(4 bytes @ 0xE0001FCC)
T668C 000:429.287   [1][1]: E0001000 CID B105900D PID 000F5132 DEVARCH 47701A02 DEVTYPE 00 DWT
T668C 000:429.300   CPU_ReadMem(32 bytes @ 0xE0002FE0)
T668C 000:429.849   CPU_ReadMem(4 bytes @ 0xE0002FBC)
T668C 000:430.231   CPU_ReadMem(4 bytes @ 0xE0002FCC)
T668C 000:432.046   [1][2]: E0002000 CID B105900D PID 000F5132 DEVARCH 47701A03 DEVTYPE 00 FPB
T668C 000:432.058   CPU_ReadMem(32 bytes @ 0xE0000FE0)
T668C 000:432.710   CPU_ReadMem(4 bytes @ 0xE0000FBC)
T668C 000:433.113   CPU_ReadMem(4 bytes @ 0xE0000FCC)
T668C 000:435.186   [1][3]: E0000000 CID B105900D PID 000F5132 DEVARCH 47701A01 DEVTYPE 43 ITM
T668C 000:435.200   CPU_ReadMem(32 bytes @ 0xE0042FE0)
T668C 000:435.776   CPU_ReadMem(4 bytes @ 0xE0042FBC)
T668C 000:436.188   CPU_ReadMem(4 bytes @ 0xE0042FCC)
T668C 000:437.930   [1][6]: E0042000 CID B105900D PID 000F5132 DEVARCH 47701A14 DEVTYPE 14 CSS600-CTI
T668C 000:437.942   CPU_ReadMem(32 bytes @ 0xE0040FE0)
T668C 000:438.396   CPU_ReadMem(4 bytes @ 0xE0040FBC)
T668C 000:438.878   CPU_ReadMem(4 bytes @ 0xE0040FCC)
T668C 000:442.358   [0][1]: E0040000 CID B105900D PID 000F5132 DEVARCH 00000000 DEVTYPE 11 TPIU
T668C 000:442.905 - 75.817ms returns 0x1BE12AEB
T668C 000:442.921 JLINK_GetDLLVersion()
T668C 000:442.925 - 0.004ms returns 79608
T668C 000:442.931 JLINK_CORE_GetFound()
T668C 000:442.935 - 0.004ms returns 0xE0400FF
T668C 000:442.971 JLINK_GetDebugInfo(0x100 = JLINKARM_ROM_TABLE_ADDR_INDEX)
T668C 000:442.978   Value=0xE00FE000
T668C 000:442.983 - 0.013ms returns 0
T668C 000:444.651 JLINK_GetDebugInfo(0x100 = JLINKARM_ROM_TABLE_ADDR_INDEX)
T668C 000:444.663   Value=0xE00FE000
T668C 000:444.669 - 0.019ms returns 0
T668C 000:444.674 JLINK_GetDebugInfo(0x101 = JLINKARM_DEBUG_INFO_ETM_ADDR_INDEX)
T668C 000:444.678   Value=0x00000000
T668C 000:444.684 - 0.009ms returns 0
T668C 000:444.689 JLINK_ReadMemEx(0xE0041FF0, 0x10 Bytes, Flags = 0x02000004)
T668C 000:444.716   CPU_ReadMem(16 bytes @ 0xE0041FF0)
T668C 000:445.309   Data:  00 00 00 00 00 00 00 00 00 00 00 00 00 00 00 00
T668C 000:445.320 - 0.630ms returns 16 (0x10)
T668C 000:445.326 JLINK_GetDebugInfo(0x102 = JLINKARM_DEBUG_INFO_MTB_ADDR_INDEX)
T668C 000:445.334   Value=0x00000000
T668C 000:445.342 - 0.015ms returns 0
T668C 000:445.346 JLINK_GetDebugInfo(0x103 = JLINKARM_DEBUG_INFO_TPIU_ADDR_INDEX)
T668C 000:445.350   Value=0xE0040000
T668C 000:445.356 - 0.009ms returns 0
T668C 000:445.360 JLINK_GetDebugInfo(0x104 = JLINKARM_DEBUG_INFO_ITM_ADDR_INDEX)
T668C 000:445.364   Value=0xE0000000
T668C 000:445.369 - 0.009ms returns 0
T668C 000:445.374 JLINK_GetDebugInfo(0x105 = JLINKARM_DEBUG_INFO_DWT_ADDR_INDEX)
T668C 000:445.378   Value=0xE0001000
T668C 000:445.383 - 0.009ms returns 0
T668C 000:445.388 JLINK_GetDebugInfo(0x106 = JLINKARM_DEBUG_INFO_FPB_ADDR_INDEX)
T668C 000:445.391   Value=0xE0002000
T668C 000:445.397 - 0.009ms returns 0
T668C 000:445.402 JLINK_GetDebugInfo(0x107 = JLINKARM_DEBUG_INFO_NVIC_ADDR_INDEX)
T668C 000:445.405   Value=0xE000E000
T668C 000:445.411 - 0.009ms returns 0
T668C 000:445.415 JLINK_GetDebugInfo(0x10C = JLINKARM_DEBUG_INFO_DBG_ADDR_INDEX)
T668C 000:445.419   Value=0xE000EDF0
T668C 000:445.424 - 0.009ms returns 0
T668C 000:445.429 JLINK_GetDebugInfo(0x01 = Unknown)
T668C 000:445.433   Value=0x00000001
T668C 000:445.438 - 0.009ms returns 0
T668C 000:445.443 JLINK_ReadMemU32(0xE000ED00, 0x1 Items)
T668C 000:445.458   CPU_ReadMem(4 bytes @ 0xE000ED00)
T668C 000:445.921   Data:  21 13 0F 63
T668C 000:445.932   Debug reg: CPUID
T668C 000:445.937 - 0.494ms returns 1 (0x1)
T668C 000:445.943 JLINK_GetDebugInfo(0x10F = JLINKARM_DEBUG_INFO_HAS_CORTEX_M_SECURITY_EXT_INDEX)
T668C 000:445.947   Value=0x00000000
T668C 000:445.952 - 0.009ms returns 0
T668C 000:445.958 JLINK_HasError()
T668C 000:445.964 JLINK_SetResetType(JLINKARM_CM3_RESET_TYPE_NORMAL)
T668C 000:445.968 - 0.004ms returns JLINKARM_CM3_RESET_TYPE_NORMAL
T668C 000:445.973 JLINK_Reset()
T668C 000:445.986   CPU is running
T668C 000:445.992   CPU_WriteMem(4 bytes @ 0xE000EDF0)
T668C 000:446.514   CPU_ReadMem(4 bytes @ 0xE000ED44)
T668C 000:446.845   CPU is running
T668C 000:446.851   CPU_WriteMem(4 bytes @ 0xE000EDFC)
T668C 000:448.694   Reset: Halt core after reset via DEMCR.VC_CORERESET.
T668C 000:450.984   Reset: Reset device via AIRCR.SYSRESETREQ.
T668C 000:450.996   CPU is running
T668C 000:451.004   CPU_WriteMem(4 bytes @ 0xE000ED0C)
T668C 000:504.579   CPU_ReadMem(4 bytes @ 0xE000EDF0)
T668C 000:505.052   CPU_ReadMem(4 bytes @ 0xE000EDF0)
T668C 000:507.678   CPU_WriteMem(4 bytes @ 0xE000EDFC)
T668C 000:513.855   CPU_ReadMem(4 bytes @ 0xE000EDF0)
T668C 000:516.582   CPU_ReadMem(4 bytes @ 0xE000EE08)
T668C 000:517.077   CPU_WriteMem(4 bytes @ 0xE0002000)
T668C 000:517.499   CPU_ReadMem(4 bytes @ 0xE000EDFC)
T668C 000:517.959   CPU_ReadMem(4 bytes @ 0xE0001000)
T668C 000:518.941   CPU_ReadMem(4 bytes @ 0xE000EE08)
T668C 000:519.332 - 73.359ms
T668C 000:519.379 JLINK_Halt()
T668C 000:519.391 - 0.011ms returns 0x00
T668C 000:519.397 JLINK_ReadMemU32(0xE000EDF0, 0x1 Items)
T668C 000:519.407   CPU_ReadMem(4 bytes @ 0xE000EDF0)
T668C 000:519.869   Data:  03 00 03 00
T668C 000:519.879   Debug reg: DHCSR
T668C 000:519.885 - 0.488ms returns 1 (0x1)
T668C 000:519.891 JLINK_WriteU32_64(0xE000EDF0, 0xA05F0003)
T668C 000:519.896   Debug reg: DHCSR
T668C 000:520.193   CPU_WriteMem(4 bytes @ 0xE000EDF0)
T668C 000:520.673 - 0.777ms returns 0 (0x00000000)
T668C 000:520.685 JLINK_WriteU32_64(0xE000EDFC, 0x01000000)
T668C 000:520.689   Debug reg: DEMCR
T668C 000:520.698   CPU_WriteMem(4 bytes @ 0xE000EDFC)
T668C 000:521.207 - 0.522ms returns 0 (0x00000000)
T668C 000:527.408 JLINK_GetHWStatus(...)
T668C 000:527.792 - 0.384ms returns 0
T668C 000:531.722 JLINK_GetNumBPUnits(Type = 0xFFFFFF00)
T668C 000:531.736 - 0.013ms returns 0x08
T668C 000:531.742 JLINK_GetNumBPUnits(Type = 0xF0)
T668C 000:531.747 - 0.004ms returns 0x2000
T668C 000:531.751 JLINK_GetNumWPUnits()
T668C 000:531.755 - 0.003ms returns 4
T668C 000:537.555 JLINK_GetSpeed()
T668C 000:537.572 - 0.016ms returns 4000
T668C 000:540.547 JLINK_ReadMemU32(0xE000E004, 0x1 Items)
T668C 000:540.576   CPU_ReadMem(4 bytes @ 0xE000E004)
T668C 000:541.105   Data:  02 00 00 00
T668C 000:541.116 - 0.570ms returns 1 (0x1)
T668C 000:541.126 JLINK_Halt()
T668C 000:541.131 - 0.004ms returns 0x00
T668C 000:541.135 JLINK_IsHalted()
T668C 000:541.140 - 0.004ms returns TRUE
T668C 000:560.141 JLINK_WriteMem(0x20000000, 0x9F4 Bytes, ...)
T668C 000:560.153   Data:  00 BE 0A E0 0D 78 2D 06 68 40 08 24 40 00 00 D3 ...
T668C 000:560.412   CPU_WriteMem(2548 bytes @ 0x20000000)
T668C 000:568.819 - 8.678ms returns 0x9F4
T668C 000:568.860 JLINK_HasError()
T668C 000:568.885 JLINK_WriteReg(R0, 0x00000000)
T668C 000:568.894   CPU_ReadMem(4 bytes @ 0xE000EE08)
T668C 000:569.294 - 0.427ms returns 0
T668C 000:569.301 JLINK_WriteReg(R1, 0x00B71B00)
T668C 000:569.306 - 0.005ms returns 0
T668C 000:569.310 JLINK_WriteReg(R2, 0x00000001)
T668C 000:569.315 - 0.004ms returns 0
T668C 000:569.319 JLINK_WriteReg(R3, 0x00000000)
T668C 000:569.323 - 0.004ms returns 0
T668C 000:569.328 JLINK_WriteReg(R4, 0x00000000)
T668C 000:569.332 - 0.004ms returns 0
T668C 000:569.336 JLINK_WriteReg(R5, 0x00000000)
T668C 000:569.341 - 0.004ms returns 0
T668C 000:569.345 JLINK_WriteReg(R6, 0x00000000)
T668C 000:569.349 - 0.004ms returns 0
T668C 000:569.353 JLINK_WriteReg(R7, 0x00000000)
T668C 000:569.358 - 0.004ms returns 0
T668C 000:569.362 JLINK_WriteReg(R8, 0x00000000)
T668C 000:569.366 - 0.004ms returns 0
T668C 000:569.371 JLINK_WriteReg(R9, 0x200009D8)
T668C 000:569.375 - 0.004ms returns 0
T668C 000:569.379 JLINK_WriteReg(R10, 0x00000000)
T668C 000:569.384 - 0.004ms returns 0
T668C 000:569.388 JLINK_WriteReg(R11, 0x00000000)
T668C 000:569.393 - 0.004ms returns 0
T668C 000:569.397 JLINK_WriteReg(R12, 0x00000000)
T668C 000:569.401 - 0.004ms returns 0
T668C 000:569.406 JLINK_WriteReg(R13 (SP), 0x20004000)
T668C 000:569.411 - 0.005ms returns 0
T668C 000:569.415 JLINK_WriteReg(R14, 0x20000001)
T668C 000:569.419 - 0.004ms returns 0
T668C 000:569.430 JLINK_WriteReg(R15 (PC), 0x20000038)
T668C 000:569.435 - 0.011ms returns 0
T668C 000:569.439 JLINK_WriteReg(XPSR, 0x01000000)
T668C 000:569.444 - 0.004ms returns 0
T668C 000:569.448 JLINK_WriteReg(MSP, 0x20004000)
T668C 000:569.452 - 0.004ms returns 0
T668C 000:569.457 JLINK_WriteReg(PSP, 0x20004000)
T668C 000:569.461 - 0.004ms returns 0
T668C 000:569.465 JLINK_WriteReg(CFBP, 0x00000000)
T668C 000:569.470 - 0.004ms returns 0
T668C 000:569.475 JLINK_SetBPEx(Addr = 0x20000000, Type = 0xFFFFFFF2)
T668C 000:569.480 - 0.005ms returns 0x00000001
T668C 000:569.485 JLINK_Go()
T668C 000:569.491   CPU_WriteMem(4 bytes @ 0xE0002000)
T668C 000:569.921   CPU_ReadMem(4 bytes @ 0xE0001000)
T668C 000:570.285   CPU_WriteMem(4 bytes @ 0xE0002008)
T668C 000:570.292   CPU_WriteMem(4 bytes @ 0xE000200C)
T668C 000:570.298   CPU_WriteMem(4 bytes @ 0xE0002010)
T668C 000:570.303   CPU_WriteMem(4 bytes @ 0xE0002014)
T668C 000:570.309   CPU_WriteMem(4 bytes @ 0xE0002018)
T668C 000:570.314   CPU_WriteMem(4 bytes @ 0xE000201C)
T668C 000:570.320   CPU_WriteMem(4 bytes @ 0xE0002020)
T668C 000:570.325   CPU_WriteMem(4 bytes @ 0xE0002024)
T668C 000:571.613   CPU_WriteMem(4 bytes @ 0xE0001004)
T668C 000:576.312   Memory map 'after startup completion point' is active
T668C 000:576.326 - 6.841ms
T668C 000:576.338 JLINK_IsHalted()
T668C 000:578.699 - 2.360ms returns TRUE
T668C 000:578.716 JLINK_ReadReg(R15 (PC))
T668C 000:578.723   CPU_ReadMem(4 bytes @ 0xE000EE08)
T668C 000:579.080 - 0.364ms returns 0x20000000
T668C 000:579.092 JLINK_ClrBPEx(BPHandle = 0x00000001)
T668C 000:579.098 - 0.005ms returns 0x00
T668C 000:579.103 JLINK_ReadReg(R0)
T668C 000:579.109 - 0.005ms returns 0x00000000
T668C 000:579.432 JLINK_HasError()
T668C 000:579.441 JLINK_WriteReg(R0, 0x00020000)
T668C 000:579.447 - 0.006ms returns 0
T668C 000:579.452 JLINK_WriteReg(R1, 0x00001000)
T668C 000:579.456 - 0.004ms returns 0
T668C 000:579.461 JLINK_WriteReg(R2, 0x000000FF)
T668C 000:579.466 - 0.004ms returns 0
T668C 000:579.470 JLINK_WriteReg(R3, 0x00000000)
T668C 000:579.475 - 0.004ms returns 0
T668C 000:579.479 JLINK_WriteReg(R4, 0x00000000)
T668C 000:579.553 - 0.073ms returns 0
T668C 000:579.563 JLINK_WriteReg(R5, 0x00000000)
T668C 000:579.567 - 0.004ms returns 0
T668C 000:579.573 JLINK_WriteReg(R6, 0x00000000)
T668C 000:579.578 - 0.004ms returns 0
T668C 000:579.582 JLINK_WriteReg(R7, 0x00000000)
T668C 000:579.586 - 0.004ms returns 0
T668C 000:579.591 JLINK_WriteReg(R8, 0x00000000)
T668C 000:579.599 - 0.007ms returns 0
T668C 000:579.605 JLINK_WriteReg(R9, 0x200009D8)
T668C 000:579.611 - 0.005ms returns 0
T668C 000:579.616 JLINK_WriteReg(R10, 0x00000000)
T668C 000:579.622 - 0.005ms returns 0
T668C 000:579.628 JLINK_WriteReg(R11, 0x00000000)
T668C 000:579.633 - 0.005ms returns 0
T668C 000:579.638 JLINK_WriteReg(R12, 0x00000000)
T668C 000:579.644 - 0.005ms returns 0
T668C 000:579.650 JLINK_WriteReg(R13 (SP), 0x20004000)
T668C 000:579.658 - 0.008ms returns 0
T668C 000:579.664 JLINK_WriteReg(R14, 0x20000001)
T668C 000:579.670 - 0.006ms returns 0
T668C 000:579.676 JLINK_WriteReg(R15 (PC), 0x20000020)
T668C 000:579.682 - 0.006ms returns 0
T668C 000:579.688 JLINK_WriteReg(XPSR, 0x01000000)
T668C 000:579.696 - 0.008ms returns 0
T668C 000:579.701 JLINK_WriteReg(MSP, 0x20004000)
T668C 000:579.705 - 0.004ms returns 0
T668C 000:579.710 JLINK_WriteReg(PSP, 0x20004000)
T668C 000:579.716 - 0.006ms returns 0
T668C 000:579.722 JLINK_WriteReg(CFBP, 0x00000000)
T668C 000:579.728 - 0.005ms returns 0
T668C 000:579.734 JLINK_SetBPEx(Addr = 0x20000000, Type = 0xFFFFFFF2)
T668C 000:579.741 - 0.007ms returns 0x00000002
T668C 000:579.747 JLINK_Go()
T668C 000:579.757   CPU_WriteMem(4 bytes @ 0xE0002000)
T668C 000:580.223   CPU_ReadMem(4 bytes @ 0xE0001000)
T668C 000:582.790 - 3.042ms
T668C 000:582.801 JLINK_IsHalted()
T668C 000:585.141 - 2.340ms returns TRUE
T668C 000:585.147 JLINK_ReadReg(R15 (PC))
T668C 000:585.153   CPU_ReadMem(4 bytes @ 0xE000EE08)
T668C 000:585.682 - 0.535ms returns 0x20000000
T668C 000:585.688 JLINK_ClrBPEx(BPHandle = 0x00000002)
T668C 000:585.693 - 0.004ms returns 0x00
T668C 000:585.698 JLINK_ReadReg(R0)
T668C 000:585.703 - 0.004ms returns 0x00000001
T668C 000:585.708 JLINK_HasError()
T668C 000:585.713 JLINK_WriteReg(R0, 0x00020000)
T668C 000:585.718 - 0.004ms returns 0
T668C 000:585.723 JLINK_WriteReg(R1, 0x00001000)
T668C 000:585.727 - 0.004ms returns 0
T668C 000:585.731 JLINK_WriteReg(R2, 0x000000FF)
T668C 000:585.736 - 0.004ms returns 0
T668C 000:585.740 JLINK_WriteReg(R3, 0x00000000)
T668C 000:585.745 - 0.004ms returns 0
T668C 000:585.749 JLINK_WriteReg(R4, 0x00000000)
T668C 000:585.753 - 0.004ms returns 0
T668C 000:585.758 JLINK_WriteReg(R5, 0x00000000)
T668C 000:585.762 - 0.004ms returns 0
T668C 000:585.766 JLINK_WriteReg(R6, 0x00000000)
T668C 000:585.770 - 0.004ms returns 0
T668C 000:585.775 JLINK_WriteReg(R7, 0x00000000)
T668C 000:585.779 - 0.004ms returns 0
T668C 000:585.783 JLINK_WriteReg(R8, 0x00000000)
T668C 000:585.787 - 0.004ms returns 0
T668C 000:585.792 JLINK_WriteReg(R9, 0x200009D8)
T668C 000:585.796 - 0.004ms returns 0
T668C 000:585.800 JLINK_WriteReg(R10, 0x00000000)
T668C 000:585.805 - 0.004ms returns 0
T668C 000:585.809 JLINK_WriteReg(R11, 0x00000000)
T668C 000:585.813 - 0.004ms returns 0
T668C 000:585.818 JLINK_WriteReg(R12, 0x00000000)
T668C 000:585.822 - 0.004ms returns 0
T668C 000:585.826 JLINK_WriteReg(R13 (SP), 0x20004000)
T668C 000:585.831 - 0.004ms returns 0
T668C 000:585.835 JLINK_WriteReg(R14, 0x20000001)
T668C 000:585.839 - 0.004ms returns 0
T668C 000:585.844 JLINK_WriteReg(R15 (PC), 0x20000120)
T668C 000:585.848 - 0.004ms returns 0
T668C 000:585.853 JLINK_WriteReg(XPSR, 0x01000000)
T668C 000:585.857 - 0.004ms returns 0
T668C 000:585.861 JLINK_WriteReg(MSP, 0x20004000)
T668C 000:585.865 - 0.004ms returns 0
T668C 000:585.870 JLINK_WriteReg(PSP, 0x20004000)
T668C 000:585.874 - 0.004ms returns 0
T668C 000:585.878 JLINK_WriteReg(CFBP, 0x00000000)
T668C 000:585.882 - 0.004ms returns 0
T668C 000:585.887 JLINK_SetBPEx(Addr = 0x20000000, Type = 0xFFFFFFF2)
T668C 000:585.892 - 0.005ms returns 0x00000003
T668C 000:585.897 JLINK_Go()
T668C 000:585.902   CPU_WriteMem(4 bytes @ 0xE0002000)
T668C 000:586.352   CPU_ReadMem(4 bytes @ 0xE0001000)
T668C 000:588.682 - 2.785ms
T668C 000:588.689 JLINK_IsHalted()
T668C 000:589.075 - 0.385ms returns FALSE
T668C 000:589.081 JLINK_HasError()
T668C 000:619.511 JLINK_IsHalted()
T668C 000:620.023 - 0.512ms returns FALSE
T668C 000:620.033 JLINK_HasError()
T668C 000:621.478 JLINK_IsHalted()
T668C 000:621.942 - 0.463ms returns FALSE
T668C 000:621.948 JLINK_HasError()
T668C 000:623.438 JLINK_IsHalted()
T668C 000:623.774 - 0.335ms returns FALSE
T668C 000:623.781 JLINK_HasError()
T668C 000:625.471 JLINK_IsHalted()
T668C 000:625.908 - 0.436ms returns FALSE
T668C 000:625.914 JLINK_HasError()
T668C 000:627.414 JLINK_IsHalted()
T668C 000:627.819 - 0.404ms returns FALSE
T668C 000:627.832 JLINK_HasError()
T668C 000:635.407 JLINK_IsHalted()
T668C 000:635.788 - 0.380ms returns FALSE
T668C 000:635.800 JLINK_HasError()
T668C 000:637.446 JLINK_IsHalted()
T668C 000:637.941 - 0.496ms returns FALSE
T668C 000:637.948 JLINK_HasError()
T668C 000:639.421 JLINK_IsHalted()
T668C 000:639.828 - 0.408ms returns FALSE
T668C 000:639.834 JLINK_HasError()
T668C 000:641.402 JLINK_IsHalted()
T668C 000:641.785 - 0.383ms returns FALSE
T668C 000:641.793 JLINK_HasError()
T668C 000:643.365 JLINK_IsHalted()
T668C 000:643.856 - 0.491ms returns FALSE
T668C 000:643.866 JLINK_HasError()
T668C 000:650.406 JLINK_IsHalted()
T668C 000:652.587 - 2.181ms returns TRUE
T668C 000:652.593 JLINK_ReadReg(R15 (PC))
T668C 000:652.601   CPU_ReadMem(4 bytes @ 0xE000EE08)
T668C 000:653.051 - 0.458ms returns 0x20000000
T668C 000:653.058 JLINK_ClrBPEx(BPHandle = 0x00000003)
T668C 000:653.063 - 0.005ms returns 0x00
T668C 000:653.068 JLINK_ReadReg(R0)
T668C 000:653.073 - 0.004ms returns 0x00000000
T668C 000:653.560 JLINK_HasError()
T668C 000:653.569 JLINK_WriteReg(R0, 0x00021000)
T668C 000:653.576 - 0.006ms returns 0
T668C 000:653.581 JLINK_WriteReg(R1, 0x00001000)
T668C 000:653.585 - 0.004ms returns 0
T668C 000:653.590 JLINK_WriteReg(R2, 0x000000FF)
T668C 000:653.595 - 0.004ms returns 0
T668C 000:653.599 JLINK_WriteReg(R3, 0x00000000)
T668C 000:653.603 - 0.004ms returns 0
T668C 000:653.608 JLINK_WriteReg(R4, 0x00000000)
T668C 000:653.612 - 0.004ms returns 0
T668C 000:653.617 JLINK_WriteReg(R5, 0x00000000)
T668C 000:653.621 - 0.004ms returns 0
T668C 000:653.625 JLINK_WriteReg(R6, 0x00000000)
T668C 000:653.629 - 0.004ms returns 0
T668C 000:653.634 JLINK_WriteReg(R7, 0x00000000)
T668C 000:653.638 - 0.004ms returns 0
T668C 000:653.642 JLINK_WriteReg(R8, 0x00000000)
T668C 000:653.647 - 0.004ms returns 0
T668C 000:653.651 JLINK_WriteReg(R9, 0x200009D8)
T668C 000:653.655 - 0.004ms returns 0
T668C 000:653.660 JLINK_WriteReg(R10, 0x00000000)
T668C 000:653.664 - 0.004ms returns 0
T668C 000:653.668 JLINK_WriteReg(R11, 0x00000000)
T668C 000:653.673 - 0.004ms returns 0
T668C 000:653.677 JLINK_WriteReg(R12, 0x00000000)
T668C 000:653.681 - 0.004ms returns 0
T668C 000:653.686 JLINK_WriteReg(R13 (SP), 0x20004000)
T668C 000:653.691 - 0.005ms returns 0
T668C 000:653.695 JLINK_WriteReg(R14, 0x20000001)
T668C 000:653.699 - 0.004ms returns 0
T668C 000:653.704 JLINK_WriteReg(R15 (PC), 0x20000020)
T668C 000:653.708 - 0.004ms returns 0
T668C 000:653.713 JLINK_WriteReg(XPSR, 0x01000000)
T668C 000:653.717 - 0.004ms returns 0
T668C 000:653.721 JLINK_WriteReg(MSP, 0x20004000)
T668C 000:653.726 - 0.004ms returns 0
T668C 000:653.730 JLINK_WriteReg(PSP, 0x20004000)
T668C 000:653.734 - 0.004ms returns 0
T668C 000:653.739 JLINK_WriteReg(CFBP, 0x00000000)
T668C 000:653.743 - 0.004ms returns 0
T668C 000:653.748 JLINK_SetBPEx(Addr = 0x20000000, Type = 0xFFFFFFF2)
T668C 000:653.753 - 0.005ms returns 0x00000004
T668C 000:653.758 JLINK_Go()
T668C 000:653.764   CPU_WriteMem(4 bytes @ 0xE0002000)
T668C 000:654.186   CPU_ReadMem(4 bytes @ 0xE0001000)
T668C 000:656.948 - 3.189ms
T668C 000:656.961 JLINK_IsHalted()
T668C 000:659.214 - 2.253ms returns TRUE
T668C 000:659.230 JLINK_ReadReg(R15 (PC))
T668C 000:659.240   CPU_ReadMem(4 bytes @ 0xE000EE08)
T668C 000:659.723 - 0.493ms returns 0x20000000
T668C 000:659.735 JLINK_ClrBPEx(BPHandle = 0x00000004)
T668C 000:659.741 - 0.005ms returns 0x00
T668C 000:659.747 JLINK_ReadReg(R0)
T668C 000:659.752 - 0.005ms returns 0x00000001
T668C 000:659.786 JLINK_HasError()
T668C 000:659.791 JLINK_WriteReg(R0, 0x00021000)
T668C 000:659.797 - 0.005ms returns 0
T668C 000:659.801 JLINK_WriteReg(R1, 0x00001000)
T668C 000:659.805 - 0.004ms returns 0
T668C 000:659.810 JLINK_WriteReg(R2, 0x000000FF)
T668C 000:659.814 - 0.004ms returns 0
T668C 000:659.818 JLINK_WriteReg(R3, 0x00000000)
T668C 000:659.823 - 0.004ms returns 0
T668C 000:659.827 JLINK_WriteReg(R4, 0x00000000)
T668C 000:659.831 - 0.004ms returns 0
T668C 000:659.836 JLINK_WriteReg(R5, 0x00000000)
T668C 000:659.840 - 0.004ms returns 0
T668C 000:659.844 JLINK_WriteReg(R6, 0x00000000)
T668C 000:659.848 - 0.004ms returns 0
T668C 000:659.853 JLINK_WriteReg(R7, 0x00000000)
T668C 000:659.857 - 0.004ms returns 0
T668C 000:659.861 JLINK_WriteReg(R8, 0x00000000)
T668C 000:659.866 - 0.004ms returns 0
T668C 000:659.870 JLINK_WriteReg(R9, 0x200009D8)
T668C 000:659.874 - 0.004ms returns 0
T668C 000:659.879 JLINK_WriteReg(R10, 0x00000000)
T668C 000:659.883 - 0.004ms returns 0
T668C 000:659.887 JLINK_WriteReg(R11, 0x00000000)
T668C 000:659.891 - 0.004ms returns 0
T668C 000:659.896 JLINK_WriteReg(R12, 0x00000000)
T668C 000:659.900 - 0.004ms returns 0
T668C 000:659.904 JLINK_WriteReg(R13 (SP), 0x20004000)
T668C 000:659.909 - 0.004ms returns 0
T668C 000:659.913 JLINK_WriteReg(R14, 0x20000001)
T668C 000:659.918 - 0.004ms returns 0
T668C 000:659.922 JLINK_WriteReg(R15 (PC), 0x20000120)
T668C 000:659.926 - 0.004ms returns 0
T668C 000:659.931 JLINK_WriteReg(XPSR, 0x01000000)
T668C 000:659.935 - 0.004ms returns 0
T668C 000:659.940 JLINK_WriteReg(MSP, 0x20004000)
T668C 000:659.944 - 0.004ms returns 0
T668C 000:659.948 JLINK_WriteReg(PSP, 0x20004000)
T668C 000:659.952 - 0.004ms returns 0
T668C 000:659.957 JLINK_WriteReg(CFBP, 0x00000000)
T668C 000:659.961 - 0.004ms returns 0
T668C 000:659.966 JLINK_SetBPEx(Addr = 0x20000000, Type = 0xFFFFFFF2)
T668C 000:659.970 - 0.005ms returns 0x00000005
T668C 000:659.975 JLINK_Go()
T668C 000:659.982   CPU_WriteMem(4 bytes @ 0xE0002000)
T668C 000:660.433   CPU_ReadMem(4 bytes @ 0xE0001000)
T668C 000:663.020 - 3.044ms
T668C 000:663.031 JLINK_IsHalted()
T668C 000:663.511 - 0.480ms returns FALSE
T668C 000:663.516 JLINK_HasError()
T668C 000:670.329 JLINK_IsHalted()
T668C 000:670.842 - 0.514ms returns FALSE
T668C 000:670.848 JLINK_HasError()
T668C 000:672.305 JLINK_IsHalted()
T668C 000:672.700 - 0.394ms returns FALSE
T668C 000:672.705 JLINK_HasError()
T668C 000:674.274 JLINK_IsHalted()
T668C 000:674.672 - 0.397ms returns FALSE
T668C 000:674.682 JLINK_HasError()
T668C 000:682.291 JLINK_IsHalted()
T668C 000:682.728 - 0.439ms returns FALSE
T668C 000:682.737 JLINK_HasError()
T668C 000:684.282 JLINK_IsHalted()
T668C 000:684.654 - 0.373ms returns FALSE
T668C 000:684.659 JLINK_HasError()
T668C 000:686.259 JLINK_IsHalted()
T668C 000:686.806 - 0.546ms returns FALSE
T668C 000:686.811 JLINK_HasError()
T668C 000:688.261 JLINK_IsHalted()
T668C 000:688.715 - 0.456ms returns FALSE
T668C 000:688.722 JLINK_HasError()
T668C 000:690.204 JLINK_IsHalted()
T668C 000:690.658 - 0.454ms returns FALSE
T668C 000:690.669 JLINK_HasError()
T668C 000:698.241 JLINK_IsHalted()
T668C 000:698.719 - 0.479ms returns FALSE
T668C 000:698.725 JLINK_HasError()
T668C 000:700.220 JLINK_IsHalted()
T668C 000:700.645 - 0.426ms returns FALSE
T668C 000:700.650 JLINK_HasError()
T668C 000:702.163 JLINK_IsHalted()
T668C 000:702.662 - 0.498ms returns FALSE
T668C 000:702.669 JLINK_HasError()
T668C 000:704.199 JLINK_IsHalted()
T668C 000:704.646 - 0.447ms returns FALSE
T668C 000:704.652 JLINK_HasError()
T668C 000:706.214 JLINK_IsHalted()
T668C 000:706.585 - 0.372ms returns FALSE
T668C 000:706.598 JLINK_HasError()
T668C 000:714.186 JLINK_IsHalted()
T668C 000:714.728 - 0.543ms returns FALSE
T668C 000:714.734 JLINK_HasError()
T668C 000:716.165 JLINK_IsHalted()
T668C 000:716.647 - 0.483ms returns FALSE
T668C 000:716.652 JLINK_HasError()
T668C 000:718.151 JLINK_IsHalted()
T668C 000:718.561 - 0.411ms returns FALSE
T668C 000:718.567 JLINK_HasError()
T668C 000:720.152 JLINK_IsHalted()
T668C 000:720.673 - 0.522ms returns FALSE
T668C 000:720.678 JLINK_HasError()
T668C 000:722.097 JLINK_IsHalted()
T668C 000:722.662 - 0.564ms returns FALSE
T668C 000:722.675 JLINK_HasError()
T668C 000:729.141 JLINK_IsHalted()
T668C 000:731.758 - 2.618ms returns TRUE
T668C 000:731.778 JLINK_ReadReg(R15 (PC))
T668C 000:731.787   CPU_ReadMem(4 bytes @ 0xE000EE08)
T668C 000:732.201 - 0.424ms returns 0x20000000
T668C 000:732.208 JLINK_ClrBPEx(BPHandle = 0x00000005)
T668C 000:732.213 - 0.005ms returns 0x00
T668C 000:732.218 JLINK_ReadReg(R0)
T668C 000:732.226 - 0.008ms returns 0x00000000
T668C 000:732.605 JLINK_HasError()
T668C 000:732.613 JLINK_WriteReg(R0, 0x00022000)
T668C 000:732.620 - 0.006ms returns 0
T668C 000:732.625 JLINK_WriteReg(R1, 0x00001000)
T668C 000:732.630 - 0.004ms returns 0
T668C 000:732.634 JLINK_WriteReg(R2, 0x000000FF)
T668C 000:732.638 - 0.004ms returns 0
T668C 000:732.643 JLINK_WriteReg(R3, 0x00000000)
T668C 000:732.647 - 0.004ms returns 0
T668C 000:732.652 JLINK_WriteReg(R4, 0x00000000)
T668C 000:732.656 - 0.004ms returns 0
T668C 000:732.660 JLINK_WriteReg(R5, 0x00000000)
T668C 000:732.664 - 0.004ms returns 0
T668C 000:732.669 JLINK_WriteReg(R6, 0x00000000)
T668C 000:732.673 - 0.004ms returns 0
T668C 000:732.677 JLINK_WriteReg(R7, 0x00000000)
T668C 000:732.681 - 0.004ms returns 0
T668C 000:732.686 JLINK_WriteReg(R8, 0x00000000)
T668C 000:732.690 - 0.004ms returns 0
T668C 000:732.694 JLINK_WriteReg(R9, 0x200009D8)
T668C 000:732.699 - 0.004ms returns 0
T668C 000:732.703 JLINK_WriteReg(R10, 0x00000000)
T668C 000:732.707 - 0.004ms returns 0
T668C 000:732.712 JLINK_WriteReg(R11, 0x00000000)
T668C 000:732.716 - 0.004ms returns 0
T668C 000:732.720 JLINK_WriteReg(R12, 0x00000000)
T668C 000:732.725 - 0.004ms returns 0
T668C 000:732.729 JLINK_WriteReg(R13 (SP), 0x20004000)
T668C 000:732.734 - 0.005ms returns 0
T668C 000:732.739 JLINK_WriteReg(R14, 0x20000001)
T668C 000:732.743 - 0.004ms returns 0
T668C 000:732.747 JLINK_WriteReg(R15 (PC), 0x20000020)
T668C 000:732.752 - 0.004ms returns 0
T668C 000:732.756 JLINK_WriteReg(XPSR, 0x01000000)
T668C 000:732.760 - 0.004ms returns 0
T668C 000:732.765 JLINK_WriteReg(MSP, 0x20004000)
T668C 000:732.769 - 0.004ms returns 0
T668C 000:732.774 JLINK_WriteReg(PSP, 0x20004000)
T668C 000:732.778 - 0.004ms returns 0
T668C 000:732.782 JLINK_WriteReg(CFBP, 0x00000000)
T668C 000:732.786 - 0.004ms returns 0
T668C 000:732.791 JLINK_SetBPEx(Addr = 0x20000000, Type = 0xFFFFFFF2)
T668C 000:732.797 - 0.005ms returns 0x00000006
T668C 000:732.802 JLINK_Go()
T668C 000:732.808   CPU_WriteMem(4 bytes @ 0xE0002000)
T668C 000:733.205   CPU_ReadMem(4 bytes @ 0xE0001000)
T668C 000:735.991 - 3.189ms
T668C 000:735.998 JLINK_IsHalted()
T668C 000:738.334 - 2.335ms returns TRUE
T668C 000:738.352 JLINK_ReadReg(R15 (PC))
T668C 000:738.364   CPU_ReadMem(4 bytes @ 0xE000EE08)
T668C 000:738.873 - 0.521ms returns 0x20000000
T668C 000:738.881 JLINK_ClrBPEx(BPHandle = 0x00000006)
T668C 000:738.886 - 0.005ms returns 0x00
T668C 000:738.891 JLINK_ReadReg(R0)
T668C 000:738.896 - 0.004ms returns 0x00000001
T668C 000:738.929 JLINK_HasError()
T668C 000:738.934 JLINK_WriteReg(R0, 0x00022000)
T668C 000:738.939 - 0.004ms returns 0
T668C 000:738.944 JLINK_WriteReg(R1, 0x00001000)
T668C 000:738.948 - 0.004ms returns 0
T668C 000:738.953 JLINK_WriteReg(R2, 0x000000FF)
T668C 000:738.957 - 0.004ms returns 0
T668C 000:738.962 JLINK_WriteReg(R3, 0x00000000)
T668C 000:738.966 - 0.004ms returns 0
T668C 000:738.970 JLINK_WriteReg(R4, 0x00000000)
T668C 000:738.975 - 0.004ms returns 0
T668C 000:738.979 JLINK_WriteReg(R5, 0x00000000)
T668C 000:738.983 - 0.004ms returns 0
T668C 000:738.988 JLINK_WriteReg(R6, 0x00000000)
T668C 000:738.992 - 0.004ms returns 0
T668C 000:738.996 JLINK_WriteReg(R7, 0x00000000)
T668C 000:739.057 - 0.060ms returns 0
T668C 000:739.065 JLINK_WriteReg(R8, 0x00000000)
T668C 000:739.069 - 0.004ms returns 0
T668C 000:739.073 JLINK_WriteReg(R9, 0x200009D8)
T668C 000:739.077 - 0.004ms returns 0
T668C 000:739.082 JLINK_WriteReg(R10, 0x00000000)
T668C 000:739.086 - 0.004ms returns 0
T668C 000:739.091 JLINK_WriteReg(R11, 0x00000000)
T668C 000:739.095 - 0.004ms returns 0
T668C 000:739.099 JLINK_WriteReg(R12, 0x00000000)
T668C 000:739.103 - 0.004ms returns 0
T668C 000:739.108 JLINK_WriteReg(R13 (SP), 0x20004000)
T668C 000:739.112 - 0.004ms returns 0
T668C 000:739.117 JLINK_WriteReg(R14, 0x20000001)
T668C 000:739.121 - 0.004ms returns 0
T668C 000:739.126 JLINK_WriteReg(R15 (PC), 0x20000120)
T668C 000:739.130 - 0.004ms returns 0
T668C 000:739.134 JLINK_WriteReg(XPSR, 0x01000000)
T668C 000:739.138 - 0.004ms returns 0
T668C 000:739.143 JLINK_WriteReg(MSP, 0x20004000)
T668C 000:739.147 - 0.004ms returns 0
T668C 000:739.152 JLINK_WriteReg(PSP, 0x20004000)
T668C 000:739.156 - 0.004ms returns 0
T668C 000:739.160 JLINK_WriteReg(CFBP, 0x00000000)
T668C 000:739.164 - 0.004ms returns 0
T668C 000:739.169 JLINK_SetBPEx(Addr = 0x20000000, Type = 0xFFFFFFF2)
T668C 000:739.175 - 0.005ms returns 0x00000007
T668C 000:739.179 JLINK_Go()
T668C 000:739.185   CPU_WriteMem(4 bytes @ 0xE0002000)
T668C 000:739.685   CPU_ReadMem(4 bytes @ 0xE0001000)
T668C 000:742.270 - 3.089ms
T668C 000:742.281 JLINK_IsHalted()
T668C 000:742.783 - 0.501ms returns FALSE
T668C 000:742.789 JLINK_HasError()
T668C 000:750.069 JLINK_IsHalted()
T668C 000:750.698 - 0.630ms returns FALSE
T668C 000:750.704 JLINK_HasError()
T668C 000:752.045 JLINK_IsHalted()
T668C 000:752.505 - 0.460ms returns FALSE
T668C 000:752.510 JLINK_HasError()
T668C 000:753.990 JLINK_IsHalted()
T668C 000:754.351 - 0.360ms returns FALSE
T668C 000:754.360 JLINK_HasError()
T668C 000:761.012 JLINK_IsHalted()
T668C 000:761.450 - 0.438ms returns FALSE
T668C 000:761.461 JLINK_HasError()
T668C 000:763.001 JLINK_IsHalted()
T668C 000:763.374 - 0.373ms returns FALSE
T668C 000:763.380 JLINK_HasError()
T668C 000:765.010 JLINK_IsHalted()
T668C 000:765.486 - 0.477ms returns FALSE
T668C 000:765.491 JLINK_HasError()
T668C 000:766.997 JLINK_IsHalted()
T668C 000:767.370 - 0.373ms returns FALSE
T668C 000:767.375 JLINK_HasError()
T668C 000:768.941 JLINK_IsHalted()
T668C 000:769.358 - 0.417ms returns FALSE
T668C 000:769.368 JLINK_HasError()
T668C 000:778.971 JLINK_IsHalted()
T668C 000:779.588 - 0.615ms returns FALSE
T668C 000:779.612 JLINK_HasError()
T668C 000:780.953 JLINK_IsHalted()
T668C 000:781.520 - 0.568ms returns FALSE
T668C 000:781.526 JLINK_HasError()
T668C 000:782.965 JLINK_IsHalted()
T668C 000:783.437 - 0.473ms returns FALSE
T668C 000:783.445 JLINK_HasError()
T668C 000:784.905 JLINK_IsHalted()
T668C 000:785.367 - 0.462ms returns FALSE
T668C 000:785.374 JLINK_HasError()
T668C 000:791.918 JLINK_IsHalted()
T668C 000:792.415 - 0.496ms returns FALSE
T668C 000:792.422 JLINK_HasError()
T668C 000:793.911 JLINK_IsHalted()
T668C 000:794.614 - 0.703ms returns FALSE
T668C 000:794.619 JLINK_HasError()
T668C 000:795.901 JLINK_IsHalted()
T668C 000:796.481 - 0.581ms returns FALSE
T668C 000:796.486 JLINK_HasError()
T668C 000:797.897 JLINK_IsHalted()
T668C 000:798.586 - 0.690ms returns FALSE
T668C 000:798.592 JLINK_HasError()
T668C 000:799.885 JLINK_IsHalted()
T668C 000:800.496 - 0.612ms returns FALSE
T668C 000:800.505 JLINK_HasError()
T668C 000:809.856 JLINK_IsHalted()
T668C 000:812.586 - 2.729ms returns TRUE
T668C 000:812.593 JLINK_ReadReg(R15 (PC))
T668C 000:812.601   CPU_ReadMem(4 bytes @ 0xE000EE08)
T668C 000:813.061 - 0.467ms returns 0x20000000
T668C 000:813.067 JLINK_ClrBPEx(BPHandle = 0x00000007)
T668C 000:813.072 - 0.005ms returns 0x00
T668C 000:813.077 JLINK_ReadReg(R0)
T668C 000:813.082 - 0.004ms returns 0x00000000
T668C 000:813.588 JLINK_HasError()
T668C 000:813.600 JLINK_WriteReg(R0, 0x00023000)
T668C 000:813.606 - 0.006ms returns 0
T668C 000:813.611 JLINK_WriteReg(R1, 0x00001000)
T668C 000:813.615 - 0.004ms returns 0
T668C 000:813.628 JLINK_WriteReg(R2, 0x000000FF)
T668C 000:813.633 - 0.005ms returns 0
T668C 000:813.637 JLINK_WriteReg(R3, 0x00000000)
T668C 000:813.641 - 0.004ms returns 0
T668C 000:813.646 JLINK_WriteReg(R4, 0x00000000)
T668C 000:813.651 - 0.004ms returns 0
T668C 000:813.655 JLINK_WriteReg(R5, 0x00000000)
T668C 000:813.659 - 0.004ms returns 0
T668C 000:813.664 JLINK_WriteReg(R6, 0x00000000)
T668C 000:813.668 - 0.004ms returns 0
T668C 000:813.672 JLINK_WriteReg(R7, 0x00000000)
T668C 000:813.676 - 0.004ms returns 0
T668C 000:813.681 JLINK_WriteReg(R8, 0x00000000)
T668C 000:813.685 - 0.004ms returns 0
T668C 000:813.690 JLINK_WriteReg(R9, 0x200009D8)
T668C 000:813.694 - 0.004ms returns 0
T668C 000:813.698 JLINK_WriteReg(R10, 0x00000000)
T668C 000:813.702 - 0.004ms returns 0
T668C 000:813.707 JLINK_WriteReg(R11, 0x00000000)
T668C 000:813.711 - 0.004ms returns 0
T668C 000:813.716 JLINK_WriteReg(R12, 0x00000000)
T668C 000:813.720 - 0.004ms returns 0
T668C 000:813.724 JLINK_WriteReg(R13 (SP), 0x20004000)
T668C 000:813.729 - 0.005ms returns 0
T668C 000:813.734 JLINK_WriteReg(R14, 0x20000001)
T668C 000:813.738 - 0.004ms returns 0
T668C 000:813.743 JLINK_WriteReg(R15 (PC), 0x20000020)
T668C 000:813.747 - 0.004ms returns 0
T668C 000:813.751 JLINK_WriteReg(XPSR, 0x01000000)
T668C 000:813.755 - 0.004ms returns 0
T668C 000:813.760 JLINK_WriteReg(MSP, 0x20004000)
T668C 000:813.764 - 0.004ms returns 0
T668C 000:813.769 JLINK_WriteReg(PSP, 0x20004000)
T668C 000:813.773 - 0.004ms returns 0
T668C 000:813.777 JLINK_WriteReg(CFBP, 0x00000000)
T668C 000:813.782 - 0.004ms returns 0
T668C 000:813.787 JLINK_SetBPEx(Addr = 0x20000000, Type = 0xFFFFFFF2)
T668C 000:813.792 - 0.005ms returns 0x00000008
T668C 000:813.798 JLINK_Go()
T668C 000:813.805   CPU_WriteMem(4 bytes @ 0xE0002000)
T668C 000:814.350   CPU_ReadMem(4 bytes @ 0xE0001000)
T668C 000:817.076 - 3.277ms
T668C 000:817.090 JLINK_IsHalted()
T668C 000:819.437 - 2.347ms returns TRUE
T668C 000:819.446 JLINK_ReadReg(R15 (PC))
T668C 000:819.452   CPU_ReadMem(4 bytes @ 0xE000EE08)
T668C 000:819.880 - 0.433ms returns 0x20000000
T668C 000:819.888 JLINK_ClrBPEx(BPHandle = 0x00000008)
T668C 000:819.892 - 0.004ms returns 0x00
T668C 000:819.897 JLINK_ReadReg(R0)
T668C 000:819.902 - 0.004ms returns 0x00000001
T668C 000:819.938 JLINK_HasError()
T668C 000:819.943 JLINK_WriteReg(R0, 0x00023000)
T668C 000:819.948 - 0.004ms returns 0
T668C 000:819.953 JLINK_WriteReg(R1, 0x00001000)
T668C 000:819.957 - 0.004ms returns 0
T668C 000:819.961 JLINK_WriteReg(R2, 0x000000FF)
T668C 000:819.965 - 0.004ms returns 0
T668C 000:819.970 JLINK_WriteReg(R3, 0x00000000)
T668C 000:819.974 - 0.004ms returns 0
T668C 000:819.978 JLINK_WriteReg(R4, 0x00000000)
T668C 000:819.982 - 0.004ms returns 0
T668C 000:819.987 JLINK_WriteReg(R5, 0x00000000)
T668C 000:819.991 - 0.004ms returns 0
T668C 000:819.995 JLINK_WriteReg(R6, 0x00000000)
T668C 000:820.000 - 0.004ms returns 0
T668C 000:820.004 JLINK_WriteReg(R7, 0x00000000)
T668C 000:820.008 - 0.004ms returns 0
T668C 000:820.013 JLINK_WriteReg(R8, 0x00000000)
T668C 000:820.017 - 0.004ms returns 0
T668C 000:820.021 JLINK_WriteReg(R9, 0x200009D8)
T668C 000:820.025 - 0.004ms returns 0
T668C 000:820.030 JLINK_WriteReg(R10, 0x00000000)
T668C 000:820.034 - 0.004ms returns 0
T668C 000:820.038 JLINK_WriteReg(R11, 0x00000000)
T668C 000:820.042 - 0.004ms returns 0
T668C 000:820.047 JLINK_WriteReg(R12, 0x00000000)
T668C 000:820.051 - 0.004ms returns 0
T668C 000:820.055 JLINK_WriteReg(R13 (SP), 0x20004000)
T668C 000:820.060 - 0.004ms returns 0
T668C 000:820.064 JLINK_WriteReg(R14, 0x20000001)
T668C 000:820.069 - 0.004ms returns 0
T668C 000:820.073 JLINK_WriteReg(R15 (PC), 0x20000120)
T668C 000:820.077 - 0.004ms returns 0
T668C 000:820.082 JLINK_WriteReg(XPSR, 0x01000000)
T668C 000:820.086 - 0.004ms returns 0
T668C 000:820.091 JLINK_WriteReg(MSP, 0x20004000)
T668C 000:820.095 - 0.004ms returns 0
T668C 000:820.099 JLINK_WriteReg(PSP, 0x20004000)
T668C 000:820.104 - 0.004ms returns 0
T668C 000:820.108 JLINK_WriteReg(CFBP, 0x00000000)
T668C 000:820.116 - 0.008ms returns 0
T668C 000:820.121 JLINK_SetBPEx(Addr = 0x20000000, Type = 0xFFFFFFF2)
T668C 000:820.126 - 0.004ms returns 0x00000009
T668C 000:820.130 JLINK_Go()
T668C 000:820.135   CPU_WriteMem(4 bytes @ 0xE0002000)
T668C 000:820.685   CPU_ReadMem(4 bytes @ 0xE0001000)
T668C 000:823.400 - 3.269ms
T668C 000:823.412 JLINK_IsHalted()
T668C 000:823.856 - 0.443ms returns FALSE
T668C 000:823.862 JLINK_HasError()
T668C 000:830.766 JLINK_IsHalted()
T668C 000:831.302 - 0.535ms returns FALSE
T668C 000:831.316 JLINK_HasError()
T668C 000:838.780 JLINK_IsHalted()
T668C 000:839.210 - 0.430ms returns FALSE
T668C 000:839.215 JLINK_HasError()
T668C 000:840.701 JLINK_IsHalted()
T668C 000:841.115 - 0.413ms returns FALSE
T668C 000:841.124 JLINK_HasError()
T668C 000:842.746 JLINK_IsHalted()
T668C 000:843.275 - 0.529ms returns FALSE
T668C 000:843.281 JLINK_HasError()
T668C 000:844.735 JLINK_IsHalted()
T668C 000:845.159 - 0.425ms returns FALSE
T668C 000:845.164 JLINK_HasError()
T668C 000:846.734 JLINK_IsHalted()
T668C 000:847.253 - 0.520ms returns FALSE
T668C 000:847.264 JLINK_HasError()
T668C 000:856.673 JLINK_IsHalted()
T668C 000:857.050 - 0.376ms returns FALSE
T668C 000:857.056 JLINK_HasError()
T668C 000:858.695 JLINK_IsHalted()
T668C 000:859.248 - 0.551ms returns FALSE
T668C 000:859.263 JLINK_HasError()
T668C 000:860.796 JLINK_IsHalted()
T668C 000:861.303 - 0.507ms returns FALSE
T668C 000:861.309 JLINK_HasError()
T668C 000:862.630 JLINK_IsHalted()
T668C 000:863.054 - 0.423ms returns FALSE
T668C 000:863.065 JLINK_HasError()
T668C 000:869.653 JLINK_IsHalted()
T668C 000:870.180 - 0.526ms returns FALSE
T668C 000:870.186 JLINK_HasError()
T668C 000:871.648 JLINK_IsHalted()
T668C 000:872.058 - 0.410ms returns FALSE
T668C 000:872.067 JLINK_HasError()
T668C 000:873.612 JLINK_IsHalted()
T668C 000:873.969 - 0.357ms returns FALSE
T668C 000:873.974 JLINK_HasError()
T668C 000:875.635 JLINK_IsHalted()
T668C 000:876.044 - 0.409ms returns FALSE
T668C 000:876.050 JLINK_HasError()
T668C 000:877.580 JLINK_IsHalted()
T668C 000:877.973 - 0.392ms returns FALSE
T668C 000:877.984 JLINK_HasError()
T668C 000:884.623 JLINK_IsHalted()
T668C 000:886.970 - 2.346ms returns TRUE
T668C 000:886.977 JLINK_ReadReg(R15 (PC))
T668C 000:886.985   CPU_ReadMem(4 bytes @ 0xE000EE08)
T668C 000:887.391 - 0.414ms returns 0x20000000
T668C 000:887.397 JLINK_ClrBPEx(BPHandle = 0x00000009)
T668C 000:887.402 - 0.005ms returns 0x00
T668C 000:887.407 JLINK_ReadReg(R0)
T668C 000:887.411 - 0.004ms returns 0x00000000
T668C 000:887.790 JLINK_HasError()
T668C 000:887.799 JLINK_WriteReg(R0, 0x00024000)
T668C 000:887.806 - 0.006ms returns 0
T668C 000:887.810 JLINK_WriteReg(R1, 0x00001000)
T668C 000:887.815 - 0.004ms returns 0
T668C 000:887.819 JLINK_WriteReg(R2, 0x000000FF)
T668C 000:887.824 - 0.004ms returns 0
T668C 000:887.828 JLINK_WriteReg(R3, 0x00000000)
T668C 000:887.832 - 0.004ms returns 0
T668C 000:887.837 JLINK_WriteReg(R4, 0x00000000)
T668C 000:887.841 - 0.004ms returns 0
T668C 000:887.846 JLINK_WriteReg(R5, 0x00000000)
T668C 000:887.850 - 0.004ms returns 0
T668C 000:887.854 JLINK_WriteReg(R6, 0x00000000)
T668C 000:887.859 - 0.004ms returns 0
T668C 000:887.863 JLINK_WriteReg(R7, 0x00000000)
T668C 000:887.867 - 0.004ms returns 0
T668C 000:887.872 JLINK_WriteReg(R8, 0x00000000)
T668C 000:887.876 - 0.004ms returns 0
T668C 000:887.880 JLINK_WriteReg(R9, 0x200009D8)
T668C 000:887.884 - 0.004ms returns 0
T668C 000:887.889 JLINK_WriteReg(R10, 0x00000000)
T668C 000:887.893 - 0.004ms returns 0
T668C 000:887.897 JLINK_WriteReg(R11, 0x00000000)
T668C 000:887.902 - 0.004ms returns 0
T668C 000:887.906 JLINK_WriteReg(R12, 0x00000000)
T668C 000:887.910 - 0.004ms returns 0
T668C 000:887.915 JLINK_WriteReg(R13 (SP), 0x20004000)
T668C 000:887.923 - 0.008ms returns 0
T668C 000:887.927 JLINK_WriteReg(R14, 0x20000001)
T668C 000:887.931 - 0.004ms returns 0
T668C 000:887.936 JLINK_WriteReg(R15 (PC), 0x20000020)
T668C 000:887.940 - 0.004ms returns 0
T668C 000:887.952 JLINK_WriteReg(XPSR, 0x01000000)
T668C 000:887.958 - 0.006ms returns 0
T668C 000:887.963 JLINK_WriteReg(MSP, 0x20004000)
T668C 000:887.967 - 0.004ms returns 0
T668C 000:887.971 JLINK_WriteReg(PSP, 0x20004000)
T668C 000:887.976 - 0.004ms returns 0
T668C 000:887.980 JLINK_WriteReg(CFBP, 0x00000000)
T668C 000:887.985 - 0.004ms returns 0
T668C 000:887.990 JLINK_SetBPEx(Addr = 0x20000000, Type = 0xFFFFFFF2)
T668C 000:887.995 - 0.005ms returns 0x0000000A
T668C 000:888.000 JLINK_Go()
T668C 000:888.007   CPU_WriteMem(4 bytes @ 0xE0002000)
T668C 000:888.515   CPU_ReadMem(4 bytes @ 0xE0001000)
T668C 000:891.215 - 3.214ms
T668C 000:891.244 JLINK_IsHalted()
T668C 000:893.594 - 2.350ms returns TRUE
T668C 000:893.611 JLINK_ReadReg(R15 (PC))
T668C 000:893.618   CPU_ReadMem(4 bytes @ 0xE000EE08)
T668C 000:894.071 - 0.460ms returns 0x20000000
T668C 000:894.080 JLINK_ClrBPEx(BPHandle = 0x0000000A)
T668C 000:894.086 - 0.005ms returns 0x00
T668C 000:894.091 JLINK_ReadReg(R0)
T668C 000:894.096 - 0.004ms returns 0x00000001
T668C 000:894.101 JLINK_HasError()
T668C 000:894.107 JLINK_WriteReg(R0, 0x00024000)
T668C 000:894.111 - 0.004ms returns 0
T668C 000:894.116 JLINK_WriteReg(R1, 0x00001000)
T668C 000:894.120 - 0.004ms returns 0
T668C 000:894.125 JLINK_WriteReg(R2, 0x000000FF)
T668C 000:894.129 - 0.004ms returns 0
T668C 000:894.133 JLINK_WriteReg(R3, 0x00000000)
T668C 000:894.137 - 0.004ms returns 0
T668C 000:894.142 JLINK_WriteReg(R4, 0x00000000)
T668C 000:894.146 - 0.004ms returns 0
T668C 000:894.150 JLINK_WriteReg(R5, 0x00000000)
T668C 000:894.155 - 0.004ms returns 0
T668C 000:894.159 JLINK_WriteReg(R6, 0x00000000)
T668C 000:894.163 - 0.004ms returns 0
T668C 000:894.168 JLINK_WriteReg(R7, 0x00000000)
T668C 000:894.172 - 0.004ms returns 0
T668C 000:894.176 JLINK_WriteReg(R8, 0x00000000)
T668C 000:894.181 - 0.004ms returns 0
T668C 000:894.185 JLINK_WriteReg(R9, 0x200009D8)
T668C 000:894.189 - 0.004ms returns 0
T668C 000:894.194 JLINK_WriteReg(R10, 0x00000000)
T668C 000:894.198 - 0.004ms returns 0
T668C 000:894.202 JLINK_WriteReg(R11, 0x00000000)
T668C 000:894.207 - 0.004ms returns 0
T668C 000:894.211 JLINK_WriteReg(R12, 0x00000000)
T668C 000:894.215 - 0.004ms returns 0
T668C 000:894.220 JLINK_WriteReg(R13 (SP), 0x20004000)
T668C 000:894.224 - 0.004ms returns 0
T668C 000:894.229 JLINK_WriteReg(R14, 0x20000001)
T668C 000:894.233 - 0.004ms returns 0
T668C 000:894.238 JLINK_WriteReg(R15 (PC), 0x20000120)
T668C 000:894.242 - 0.004ms returns 0
T668C 000:894.246 JLINK_WriteReg(XPSR, 0x01000000)
T668C 000:894.251 - 0.004ms returns 0
T668C 000:894.255 JLINK_WriteReg(MSP, 0x20004000)
T668C 000:894.259 - 0.004ms returns 0
T668C 000:894.264 JLINK_WriteReg(PSP, 0x20004000)
T668C 000:894.268 - 0.004ms returns 0
T668C 000:894.272 JLINK_WriteReg(CFBP, 0x00000000)
T668C 000:894.277 - 0.004ms returns 0
T668C 000:894.281 JLINK_SetBPEx(Addr = 0x20000000, Type = 0xFFFFFFF2)
T668C 000:894.287 - 0.005ms returns 0x0000000B
T668C 000:894.291 JLINK_Go()
T668C 000:894.297   CPU_WriteMem(4 bytes @ 0xE0002000)
T668C 000:894.785   CPU_ReadMem(4 bytes @ 0xE0001000)
T668C 000:897.378 - 3.086ms
T668C 000:897.383 JLINK_IsHalted()
T668C 000:897.875 - 0.491ms returns FALSE
T668C 000:897.885 JLINK_HasError()
T668C 000:904.648 JLINK_IsHalted()
T668C 000:905.083 - 0.434ms returns FALSE
T668C 000:905.093 JLINK_HasError()
T668C 000:906.484 JLINK_IsHalted()
T668C 000:906.991 - 0.507ms returns FALSE
T668C 000:907.000 JLINK_HasError()
T668C 000:908.531 JLINK_IsHalted()
T668C 000:908.927 - 0.397ms returns FALSE
T668C 000:908.937 JLINK_HasError()
T668C 000:916.494 JLINK_IsHalted()
T668C 000:916.847 - 0.352ms returns FALSE
T668C 000:916.853 JLINK_HasError()
T668C 000:918.489 JLINK_IsHalted()
T668C 000:918.942 - 0.454ms returns FALSE
T668C 000:918.947 JLINK_HasError()
T668C 000:920.484 JLINK_IsHalted()
T668C 000:920.927 - 0.443ms returns FALSE
T668C 000:920.932 JLINK_HasError()
T668C 000:922.477 JLINK_IsHalted()
T668C 000:922.991 - 0.515ms returns FALSE
T668C 000:922.996 JLINK_HasError()
T668C 000:924.500 JLINK_IsHalted()
T668C 000:924.898 - 0.402ms returns FALSE
T668C 000:924.906 JLINK_HasError()
T668C 000:931.456 JLINK_IsHalted()
T668C 000:931.970 - 0.514ms returns FALSE
T668C 000:931.976 JLINK_HasError()
T668C 000:933.440 JLINK_IsHalted()
T668C 000:933.902 - 0.463ms returns FALSE
T668C 000:933.908 JLINK_HasError()
T668C 000:935.426 JLINK_IsHalted()
T668C 000:935.890 - 0.465ms returns FALSE
T668C 000:935.896 JLINK_HasError()
T668C 000:937.425 JLINK_IsHalted()
T668C 000:937.864 - 0.439ms returns FALSE
T668C 000:937.871 JLINK_HasError()
T668C 000:939.419 JLINK_IsHalted()
T668C 000:939.891 - 0.473ms returns FALSE
T668C 000:939.898 JLINK_HasError()
T668C 000:941.364 JLINK_IsHalted()
T668C 000:941.869 - 0.504ms returns FALSE
T668C 000:941.878 JLINK_HasError()
T668C 000:949.383 JLINK_IsHalted()
T668C 000:949.829 - 0.446ms returns FALSE
T668C 000:949.838 JLINK_HasError()
T668C 000:951.402 JLINK_IsHalted()
T668C 000:951.827 - 0.425ms returns FALSE
T668C 000:951.833 JLINK_HasError()
T668C 000:953.369 JLINK_IsHalted()
T668C 000:953.807 - 0.439ms returns FALSE
T668C 000:953.812 JLINK_HasError()
T668C 000:955.359 JLINK_IsHalted()
T668C 000:955.840 - 0.482ms returns FALSE
T668C 000:955.845 JLINK_HasError()
T668C 000:957.313 JLINK_IsHalted()
T668C 000:957.796 - 0.483ms returns FALSE
T668C 000:957.803 JLINK_HasError()
T668C 000:966.345 JLINK_IsHalted()
T668C 000:968.635 - 2.291ms returns TRUE
T668C 000:968.642 JLINK_ReadReg(R15 (PC))
T668C 000:968.650   CPU_ReadMem(4 bytes @ 0xE000EE08)
T668C 000:969.023 - 0.381ms returns 0x20000000
T668C 000:969.029 JLINK_ClrBPEx(BPHandle = 0x0000000B)
T668C 000:969.034 - 0.004ms returns 0x00
T668C 000:969.040 JLINK_ReadReg(R0)
T668C 000:969.045 - 0.005ms returns 0x00000000
T668C 000:969.577 JLINK_HasError()
T668C 000:969.588 JLINK_WriteReg(R0, 0x00025000)
T668C 000:969.595 - 0.007ms returns 0
T668C 000:969.600 JLINK_WriteReg(R1, 0x00001000)
